              * /home/drako/esim-workspace/halfadder/halfadder.cir
              Transient Analysis  Tue Jun 29 20:26:49  2021
--------------------------------------------------------------------------------
Index   time                            a0              b0              
--------------------------------------------------------------------------------
0	0.000000e+00	0.000000e+00	0.000000e+00	0.000000e+00	
1	1.000000e-12	0.000000e+00	1.800000e-02	1.800000e-02	
2	2.000000e-12	0.000000e+00	3.600000e-02	3.600000e-02	
3	4.000000e-12	0.000000e+00	7.200000e-02	7.200000e-02	
4	8.000000e-12	0.000000e+00	1.440000e-01	1.440000e-01	
5	1.600000e-11	0.000000e+00	2.880000e-01	2.880000e-01	
6	3.200000e-11	0.000000e+00	5.760000e-01	5.760000e-01	
7	6.400000e-11	0.000000e+00	1.152000e+00	1.152000e+00	
8	1.000000e-10	0.000000e+00	1.800000e+00	1.800000e+00	
9	1.050523e-10	0.000000e+00	1.800000e+00	1.800000e+00	
10	1.151569e-10	0.000000e+00	1.800000e+00	1.800000e+00	
11	1.353660e-10	0.000000e+00	1.800000e+00	1.800000e+00	
12	1.554503e-10	0.000000e+00	1.800000e+00	1.800000e+00	
13	1.804616e-10	0.000000e+00	1.800000e+00	1.800000e+00	
14	2.230758e-10	0.000000e+00	1.800000e+00	1.800000e+00	
15	2.787064e-10	0.000000e+00	1.800000e+00	1.800000e+00	
16	3.386547e-10	0.000000e+00	1.800000e+00	1.800000e+00	
17	4.251412e-10	0.000000e+00	1.800000e+00	1.800000e+00	
18	5.136957e-10	0.000000e+00	1.800000e+00	1.800000e+00	
19	6.136957e-10	0.000000e+00	1.800000e+00	1.800000e+00	
20	7.136957e-10	0.000000e+00	1.800000e+00	1.800000e+00	
21	8.136957e-10	0.000000e+00	1.800000e+00	1.800000e+00	
22	9.136957e-10	0.000000e+00	1.800000e+00	1.800000e+00	
23	1.013696e-09	0.000000e+00	1.800000e+00	1.800000e+00	
24	1.113696e-09	0.000000e+00	1.800000e+00	1.800000e+00	
25	1.213696e-09	0.000000e+00	1.800000e+00	1.800000e+00	
26	1.313696e-09	0.000000e+00	1.800000e+00	1.800000e+00	
27	1.413696e-09	0.000000e+00	1.800000e+00	1.800000e+00	
28	1.513696e-09	0.000000e+00	1.800000e+00	1.800000e+00	
29	1.613696e-09	0.000000e+00	1.800000e+00	1.800000e+00	
30	1.713696e-09	0.000000e+00	1.800000e+00	1.800000e+00	
31	1.813696e-09	0.000000e+00	1.800000e+00	1.800000e+00	
32	1.913696e-09	0.000000e+00	1.800000e+00	1.800000e+00	
33	2.013696e-09	0.000000e+00	1.800000e+00	1.800000e+00	
34	2.113696e-09	0.000000e+00	1.800000e+00	1.800000e+00	
35	2.213696e-09	0.000000e+00	1.800000e+00	1.800000e+00	
36	2.313696e-09	0.000000e+00	1.800000e+00	1.800000e+00	
37	2.413696e-09	0.000000e+00	1.800000e+00	1.800000e+00	
38	2.513696e-09	0.000000e+00	1.800000e+00	1.800000e+00	
39	2.613696e-09	0.000000e+00	1.800000e+00	1.800000e+00	
40	2.713696e-09	0.000000e+00	1.800000e+00	1.800000e+00	
41	2.813696e-09	0.000000e+00	1.800000e+00	1.800000e+00	
42	2.913696e-09	0.000000e+00	1.800000e+00	1.800000e+00	
43	3.013696e-09	0.000000e+00	1.800000e+00	1.800000e+00	
44	3.113696e-09	0.000000e+00	1.800000e+00	1.800000e+00	
45	3.213696e-09	0.000000e+00	1.800000e+00	1.800000e+00	
46	3.313696e-09	0.000000e+00	1.800000e+00	1.800000e+00	
47	3.413696e-09	0.000000e+00	1.800000e+00	1.800000e+00	
48	3.513696e-09	0.000000e+00	1.800000e+00	1.800000e+00	
49	3.613696e-09	0.000000e+00	1.800000e+00	1.800000e+00	
50	3.713696e-09	0.000000e+00	1.800000e+00	1.800000e+00	
51	3.813696e-09	0.000000e+00	1.800000e+00	1.800000e+00	
52	3.913696e-09	0.000000e+00	1.800000e+00	1.800000e+00	
53	4.013696e-09	0.000000e+00	1.800000e+00	1.800000e+00	
54	4.113696e-09	0.000000e+00	1.800000e+00	1.800000e+00	

Index   time                            a0              b0              
--------------------------------------------------------------------------------
55	4.213696e-09	0.000000e+00	1.800000e+00	1.800000e+00	
56	4.313696e-09	0.000000e+00	1.800000e+00	1.800000e+00	
57	4.413696e-09	0.000000e+00	1.800000e+00	1.800000e+00	
58	4.513696e-09	0.000000e+00	1.800000e+00	1.800000e+00	
59	4.613696e-09	0.000000e+00	1.800000e+00	1.800000e+00	
60	4.713696e-09	0.000000e+00	1.800000e+00	1.800000e+00	
61	4.813696e-09	0.000000e+00	1.800000e+00	1.800000e+00	
62	4.913696e-09	0.000000e+00	1.800000e+00	1.800000e+00	
63	5.013696e-09	0.000000e+00	1.800000e+00	1.800000e+00	
64	5.100000e-09	0.000000e+00	1.800000e+00	1.800000e+00	
65	5.110000e-09	0.000000e+00	1.620000e+00	1.800000e+00	
66	5.130000e-09	0.000000e+00	1.260000e+00	1.800000e+00	
67	5.170000e-09	0.000000e+00	5.400000e-01	1.800000e+00	
68	5.200000e-09	0.000000e+00	0.000000e+00	1.800000e+00	
69	5.205361e-09	0.000000e+00	0.000000e+00	1.800000e+00	
70	5.216084e-09	0.000000e+00	0.000000e+00	1.800000e+00	
71	5.237529e-09	0.000000e+00	0.000000e+00	1.800000e+00	
72	5.259904e-09	0.000000e+00	0.000000e+00	1.800000e+00	
73	5.289356e-09	0.000000e+00	0.000000e+00	1.800000e+00	
74	5.336278e-09	0.000000e+00	0.000000e+00	1.800000e+00	
75	5.396076e-09	0.000000e+00	0.000000e+00	1.800000e+00	
76	5.487731e-09	0.000000e+00	0.000000e+00	1.800000e+00	
77	5.587731e-09	0.000000e+00	0.000000e+00	1.800000e+00	
78	5.687731e-09	0.000000e+00	0.000000e+00	1.800000e+00	
79	5.787731e-09	0.000000e+00	0.000000e+00	1.800000e+00	
80	5.887731e-09	0.000000e+00	0.000000e+00	1.800000e+00	
81	5.987731e-09	0.000000e+00	0.000000e+00	1.800000e+00	
82	6.087731e-09	0.000000e+00	0.000000e+00	1.800000e+00	
83	6.187731e-09	0.000000e+00	0.000000e+00	1.800000e+00	
84	6.287731e-09	0.000000e+00	0.000000e+00	1.800000e+00	
85	6.387731e-09	0.000000e+00	0.000000e+00	1.800000e+00	
86	6.487731e-09	0.000000e+00	0.000000e+00	1.800000e+00	
87	6.587731e-09	0.000000e+00	0.000000e+00	1.800000e+00	
88	6.687731e-09	0.000000e+00	0.000000e+00	1.800000e+00	
89	6.787731e-09	0.000000e+00	0.000000e+00	1.800000e+00	
90	6.887731e-09	0.000000e+00	0.000000e+00	1.800000e+00	
91	6.987731e-09	0.000000e+00	0.000000e+00	1.800000e+00	
92	7.087731e-09	0.000000e+00	0.000000e+00	1.800000e+00	
93	7.187731e-09	0.000000e+00	0.000000e+00	1.800000e+00	
94	7.287731e-09	0.000000e+00	0.000000e+00	1.800000e+00	
95	7.387731e-09	0.000000e+00	0.000000e+00	1.800000e+00	
96	7.487731e-09	0.000000e+00	0.000000e+00	1.800000e+00	
97	7.587731e-09	0.000000e+00	0.000000e+00	1.800000e+00	
98	7.687731e-09	0.000000e+00	0.000000e+00	1.800000e+00	
99	7.787731e-09	0.000000e+00	0.000000e+00	1.800000e+00	
100	7.887731e-09	0.000000e+00	0.000000e+00	1.800000e+00	
101	7.987731e-09	0.000000e+00	0.000000e+00	1.800000e+00	
102	8.087731e-09	0.000000e+00	0.000000e+00	1.800000e+00	
103	8.187731e-09	0.000000e+00	0.000000e+00	1.800000e+00	
104	8.287731e-09	0.000000e+00	0.000000e+00	1.800000e+00	
105	8.387731e-09	0.000000e+00	0.000000e+00	1.800000e+00	
106	8.487731e-09	0.000000e+00	0.000000e+00	1.800000e+00	
107	8.587731e-09	0.000000e+00	0.000000e+00	1.800000e+00	
108	8.687731e-09	0.000000e+00	0.000000e+00	1.800000e+00	
109	8.787731e-09	0.000000e+00	0.000000e+00	1.800000e+00	
110	8.887731e-09	0.000000e+00	0.000000e+00	1.800000e+00	
111	8.987731e-09	0.000000e+00	0.000000e+00	1.800000e+00	
112	9.087731e-09	0.000000e+00	0.000000e+00	1.800000e+00	

Index   time                            a0              b0              
--------------------------------------------------------------------------------
113	9.187731e-09	0.000000e+00	0.000000e+00	1.800000e+00	
114	9.287731e-09	0.000000e+00	0.000000e+00	1.800000e+00	
115	9.387731e-09	0.000000e+00	0.000000e+00	1.800000e+00	
116	9.487731e-09	0.000000e+00	0.000000e+00	1.800000e+00	
117	9.587731e-09	0.000000e+00	0.000000e+00	1.800000e+00	
118	9.687731e-09	0.000000e+00	0.000000e+00	1.800000e+00	
119	9.787731e-09	0.000000e+00	0.000000e+00	1.800000e+00	
120	9.887731e-09	0.000000e+00	0.000000e+00	1.800000e+00	
121	9.987731e-09	0.000000e+00	0.000000e+00	1.800000e+00	
122	1.000000e-08	0.000000e+00	0.000000e+00	1.800000e+00	
123	1.000537e-08	0.000000e+00	9.664856e-02	1.800000e+00	
124	1.001611e-08	0.000000e+00	2.899457e-01	1.800000e+00	
125	1.003759e-08	0.000000e+00	6.765399e-01	1.800000e+00	
126	1.008054e-08	0.000000e+00	1.449728e+00	1.800000e+00	
127	1.010000e-08	0.000000e+00	1.800000e+00	1.800000e+00	
128	1.010681e-08	0.000000e+00	1.800000e+00	1.677407e+00	
129	1.012043e-08	0.000000e+00	1.800000e+00	1.432220e+00	
130	1.014768e-08	0.000000e+00	1.800000e+00	9.418463e-01	
131	1.018461e-08	0.000000e+00	1.800000e+00	2.769451e-01	
132	1.020000e-08	0.000000e+00	1.800000e+00	0.000000e+00	
133	1.020394e-08	0.000000e+00	1.800000e+00	0.000000e+00	
134	1.021182e-08	0.000000e+00	1.800000e+00	0.000000e+00	
135	1.022758e-08	0.000000e+00	1.800000e+00	0.000000e+00	
136	1.025911e-08	0.000000e+00	1.800000e+00	0.000000e+00	
137	1.031571e-08	0.000000e+00	1.800000e+00	0.000000e+00	
138	1.038735e-08	0.000000e+00	1.800000e+00	0.000000e+00	
139	1.048735e-08	0.000000e+00	1.800000e+00	0.000000e+00	
140	1.058735e-08	0.000000e+00	1.800000e+00	0.000000e+00	
141	1.068735e-08	0.000000e+00	1.800000e+00	0.000000e+00	
142	1.078735e-08	0.000000e+00	1.800000e+00	0.000000e+00	
143	1.088735e-08	0.000000e+00	1.800000e+00	0.000000e+00	
144	1.098735e-08	0.000000e+00	1.800000e+00	0.000000e+00	
145	1.108735e-08	0.000000e+00	1.800000e+00	0.000000e+00	
146	1.118735e-08	0.000000e+00	1.800000e+00	0.000000e+00	
147	1.128735e-08	0.000000e+00	1.800000e+00	0.000000e+00	
148	1.138735e-08	0.000000e+00	1.800000e+00	0.000000e+00	
149	1.148735e-08	0.000000e+00	1.800000e+00	0.000000e+00	
150	1.158735e-08	0.000000e+00	1.800000e+00	0.000000e+00	
151	1.168735e-08	0.000000e+00	1.800000e+00	0.000000e+00	
152	1.178735e-08	0.000000e+00	1.800000e+00	0.000000e+00	
153	1.188735e-08	0.000000e+00	1.800000e+00	0.000000e+00	
154	1.198735e-08	0.000000e+00	1.800000e+00	0.000000e+00	
155	1.208735e-08	0.000000e+00	1.800000e+00	0.000000e+00	
156	1.218735e-08	0.000000e+00	1.800000e+00	0.000000e+00	
157	1.228735e-08	0.000000e+00	1.800000e+00	0.000000e+00	
158	1.238735e-08	0.000000e+00	1.800000e+00	0.000000e+00	
159	1.248735e-08	0.000000e+00	1.800000e+00	0.000000e+00	
160	1.258735e-08	0.000000e+00	1.800000e+00	0.000000e+00	
161	1.268735e-08	0.000000e+00	1.800000e+00	0.000000e+00	
162	1.278735e-08	0.000000e+00	1.800000e+00	0.000000e+00	
163	1.288735e-08	0.000000e+00	1.800000e+00	0.000000e+00	
164	1.298735e-08	0.000000e+00	1.800000e+00	0.000000e+00	
165	1.308735e-08	0.000000e+00	1.800000e+00	0.000000e+00	
166	1.318735e-08	0.000000e+00	1.800000e+00	0.000000e+00	
167	1.328735e-08	0.000000e+00	1.800000e+00	0.000000e+00	
168	1.338735e-08	0.000000e+00	1.800000e+00	0.000000e+00	
169	1.348735e-08	0.000000e+00	1.800000e+00	0.000000e+00	
170	1.358735e-08	0.000000e+00	1.800000e+00	0.000000e+00	

Index   time                            a0              b0              
--------------------------------------------------------------------------------
171	1.368735e-08	0.000000e+00	1.800000e+00	0.000000e+00	
172	1.378735e-08	0.000000e+00	1.800000e+00	0.000000e+00	
173	1.388735e-08	0.000000e+00	1.800000e+00	0.000000e+00	
174	1.398735e-08	0.000000e+00	1.800000e+00	0.000000e+00	
175	1.408735e-08	0.000000e+00	1.800000e+00	0.000000e+00	
176	1.418735e-08	0.000000e+00	1.800000e+00	0.000000e+00	
177	1.428735e-08	0.000000e+00	1.800000e+00	0.000000e+00	
178	1.438735e-08	0.000000e+00	1.800000e+00	0.000000e+00	
179	1.448735e-08	0.000000e+00	1.800000e+00	0.000000e+00	
180	1.458735e-08	0.000000e+00	1.800000e+00	0.000000e+00	
181	1.468735e-08	0.000000e+00	1.800000e+00	0.000000e+00	
182	1.478735e-08	0.000000e+00	1.800000e+00	0.000000e+00	
183	1.488735e-08	0.000000e+00	1.800000e+00	0.000000e+00	
184	1.498735e-08	0.000000e+00	1.800000e+00	0.000000e+00	
185	1.508735e-08	0.000000e+00	1.800000e+00	0.000000e+00	
186	1.510000e-08	0.000000e+00	1.800000e+00	0.000000e+00	
187	1.510459e-08	0.000000e+00	1.717368e+00	0.000000e+00	
188	1.511377e-08	0.000000e+00	1.552105e+00	0.000000e+00	
189	1.513213e-08	0.000000e+00	1.221578e+00	0.000000e+00	
190	1.516886e-08	0.000000e+00	5.605251e-01	0.000000e+00	
191	1.520000e-08	0.000000e+00	0.000000e+00	0.000000e+00	
192	1.520653e-08	0.000000e+00	0.000000e+00	0.000000e+00	
193	1.521960e-08	0.000000e+00	0.000000e+00	0.000000e+00	
194	1.524574e-08	0.000000e+00	0.000000e+00	0.000000e+00	
195	1.529802e-08	0.000000e+00	0.000000e+00	0.000000e+00	
196	1.535753e-08	0.000000e+00	0.000000e+00	0.000000e+00	
197	1.542243e-08	0.000000e+00	0.000000e+00	0.000000e+00	
198	1.552243e-08	0.000000e+00	0.000000e+00	0.000000e+00	
199	1.562243e-08	0.000000e+00	0.000000e+00	0.000000e+00	
200	1.572243e-08	0.000000e+00	0.000000e+00	0.000000e+00	
201	1.582243e-08	0.000000e+00	0.000000e+00	0.000000e+00	
202	1.592243e-08	0.000000e+00	0.000000e+00	0.000000e+00	
203	1.602243e-08	0.000000e+00	0.000000e+00	0.000000e+00	
204	1.612243e-08	0.000000e+00	0.000000e+00	0.000000e+00	
205	1.622243e-08	0.000000e+00	0.000000e+00	0.000000e+00	
206	1.632243e-08	0.000000e+00	0.000000e+00	0.000000e+00	
207	1.642243e-08	0.000000e+00	0.000000e+00	0.000000e+00	
208	1.652243e-08	0.000000e+00	0.000000e+00	0.000000e+00	
209	1.662243e-08	0.000000e+00	0.000000e+00	0.000000e+00	
210	1.672243e-08	0.000000e+00	0.000000e+00	0.000000e+00	
211	1.682243e-08	0.000000e+00	0.000000e+00	0.000000e+00	
212	1.692243e-08	0.000000e+00	0.000000e+00	0.000000e+00	
213	1.702243e-08	0.000000e+00	0.000000e+00	0.000000e+00	
214	1.712243e-08	0.000000e+00	0.000000e+00	0.000000e+00	
215	1.722243e-08	0.000000e+00	0.000000e+00	0.000000e+00	
216	1.732243e-08	0.000000e+00	0.000000e+00	0.000000e+00	
217	1.742243e-08	0.000000e+00	0.000000e+00	0.000000e+00	
218	1.752243e-08	0.000000e+00	0.000000e+00	0.000000e+00	
219	1.762243e-08	0.000000e+00	0.000000e+00	0.000000e+00	
220	1.772243e-08	0.000000e+00	0.000000e+00	0.000000e+00	
221	1.782243e-08	0.000000e+00	0.000000e+00	0.000000e+00	
222	1.792243e-08	0.000000e+00	0.000000e+00	0.000000e+00	
223	1.802243e-08	0.000000e+00	0.000000e+00	0.000000e+00	
224	1.812243e-08	0.000000e+00	0.000000e+00	0.000000e+00	
225	1.822243e-08	0.000000e+00	0.000000e+00	0.000000e+00	
226	1.832243e-08	0.000000e+00	0.000000e+00	0.000000e+00	
227	1.842243e-08	0.000000e+00	0.000000e+00	0.000000e+00	
228	1.852243e-08	0.000000e+00	0.000000e+00	0.000000e+00	

Index   time                            a0              b0              
--------------------------------------------------------------------------------
229	1.862243e-08	0.000000e+00	0.000000e+00	0.000000e+00	
230	1.872243e-08	0.000000e+00	0.000000e+00	0.000000e+00	
231	1.882243e-08	0.000000e+00	0.000000e+00	0.000000e+00	
232	1.892243e-08	0.000000e+00	0.000000e+00	0.000000e+00	
233	1.902243e-08	0.000000e+00	0.000000e+00	0.000000e+00	
234	1.912243e-08	0.000000e+00	0.000000e+00	0.000000e+00	
235	1.922243e-08	0.000000e+00	0.000000e+00	0.000000e+00	
236	1.932243e-08	0.000000e+00	0.000000e+00	0.000000e+00	
237	1.942243e-08	0.000000e+00	0.000000e+00	0.000000e+00	
238	1.952243e-08	0.000000e+00	0.000000e+00	0.000000e+00	
239	1.962243e-08	0.000000e+00	0.000000e+00	0.000000e+00	
240	1.972243e-08	0.000000e+00	0.000000e+00	0.000000e+00	
241	1.982243e-08	0.000000e+00	0.000000e+00	0.000000e+00	
242	1.992243e-08	0.000000e+00	0.000000e+00	0.000000e+00	
243	2.000000e-08	0.000000e+00	0.000000e+00	0.000000e+00	
244	2.001000e-08	0.000000e+00	1.800000e-01	1.800000e-01	
245	2.003000e-08	0.000000e+00	5.400000e-01	5.400000e-01	
246	2.007000e-08	0.000000e+00	1.260000e+00	1.260000e+00	
247	2.010000e-08	0.000000e+00	1.800000e+00	1.800000e+00	
248	2.010517e-08	0.000000e+00	1.800000e+00	1.800000e+00	
249	2.011550e-08	0.000000e+00	1.800000e+00	1.800000e+00	
250	2.013616e-08	0.000000e+00	1.800000e+00	1.800000e+00	
251	2.016241e-08	0.000000e+00	1.800000e+00	1.800000e+00	
252	2.019835e-08	0.000000e+00	1.800000e+00	1.800000e+00	
253	2.024604e-08	0.000000e+00	1.800000e+00	1.800000e+00	
254	2.030688e-08	0.000000e+00	1.800000e+00	1.800000e+00	
255	2.036731e-08	0.000000e+00	1.800000e+00	1.800000e+00	
256	2.045945e-08	0.000000e+00	1.800000e+00	1.800000e+00	
257	2.055945e-08	0.000000e+00	1.800000e+00	1.800000e+00	
258	2.065945e-08	0.000000e+00	1.800000e+00	1.800000e+00	
259	2.075945e-08	0.000000e+00	1.800000e+00	1.800000e+00	
260	2.085945e-08	0.000000e+00	1.800000e+00	1.800000e+00	
261	2.095945e-08	0.000000e+00	1.800000e+00	1.800000e+00	
262	2.105945e-08	0.000000e+00	1.800000e+00	1.800000e+00	
263	2.115945e-08	0.000000e+00	1.800000e+00	1.800000e+00	
264	2.125945e-08	0.000000e+00	1.800000e+00	1.800000e+00	
265	2.135945e-08	0.000000e+00	1.800000e+00	1.800000e+00	
266	2.145945e-08	0.000000e+00	1.800000e+00	1.800000e+00	
267	2.155945e-08	0.000000e+00	1.800000e+00	1.800000e+00	
268	2.165945e-08	0.000000e+00	1.800000e+00	1.800000e+00	
269	2.175945e-08	0.000000e+00	1.800000e+00	1.800000e+00	
270	2.185945e-08	0.000000e+00	1.800000e+00	1.800000e+00	
271	2.195945e-08	0.000000e+00	1.800000e+00	1.800000e+00	
272	2.205945e-08	0.000000e+00	1.800000e+00	1.800000e+00	
273	2.215945e-08	0.000000e+00	1.800000e+00	1.800000e+00	
274	2.225945e-08	0.000000e+00	1.800000e+00	1.800000e+00	
275	2.235945e-08	0.000000e+00	1.800000e+00	1.800000e+00	
276	2.245945e-08	0.000000e+00	1.800000e+00	1.800000e+00	
277	2.255945e-08	0.000000e+00	1.800000e+00	1.800000e+00	
278	2.265945e-08	0.000000e+00	1.800000e+00	1.800000e+00	
279	2.275945e-08	0.000000e+00	1.800000e+00	1.800000e+00	
280	2.285945e-08	0.000000e+00	1.800000e+00	1.800000e+00	
281	2.295945e-08	0.000000e+00	1.800000e+00	1.800000e+00	
282	2.305945e-08	0.000000e+00	1.800000e+00	1.800000e+00	
283	2.315945e-08	0.000000e+00	1.800000e+00	1.800000e+00	
284	2.325945e-08	0.000000e+00	1.800000e+00	1.800000e+00	
285	2.335945e-08	0.000000e+00	1.800000e+00	1.800000e+00	
286	2.345945e-08	0.000000e+00	1.800000e+00	1.800000e+00	

Index   time                            a0              b0              
--------------------------------------------------------------------------------
287	2.355945e-08	0.000000e+00	1.800000e+00	1.800000e+00	
288	2.365945e-08	0.000000e+00	1.800000e+00	1.800000e+00	
289	2.375945e-08	0.000000e+00	1.800000e+00	1.800000e+00	
290	2.385945e-08	0.000000e+00	1.800000e+00	1.800000e+00	
291	2.395945e-08	0.000000e+00	1.800000e+00	1.800000e+00	
292	2.405945e-08	0.000000e+00	1.800000e+00	1.800000e+00	
293	2.415945e-08	0.000000e+00	1.800000e+00	1.800000e+00	
294	2.425945e-08	0.000000e+00	1.800000e+00	1.800000e+00	
295	2.435945e-08	0.000000e+00	1.800000e+00	1.800000e+00	
296	2.445945e-08	0.000000e+00	1.800000e+00	1.800000e+00	
297	2.455945e-08	0.000000e+00	1.800000e+00	1.800000e+00	
298	2.465945e-08	0.000000e+00	1.800000e+00	1.800000e+00	
299	2.475945e-08	0.000000e+00	1.800000e+00	1.800000e+00	
300	2.485945e-08	0.000000e+00	1.800000e+00	1.800000e+00	
301	2.495945e-08	0.000000e+00	1.800000e+00	1.800000e+00	
302	2.505945e-08	0.000000e+00	1.800000e+00	1.800000e+00	
303	2.510000e-08	0.000000e+00	1.800000e+00	1.800000e+00	
304	2.511000e-08	0.000000e+00	1.620000e+00	1.800000e+00	
305	2.513000e-08	0.000000e+00	1.260000e+00	1.800000e+00	
306	2.517000e-08	0.000000e+00	5.400000e-01	1.800000e+00	
307	2.520000e-08	0.000000e+00	0.000000e+00	1.800000e+00	
308	2.520537e-08	0.000000e+00	0.000000e+00	1.800000e+00	
309	2.521610e-08	0.000000e+00	0.000000e+00	1.800000e+00	
310	2.523756e-08	0.000000e+00	0.000000e+00	1.800000e+00	
311	2.525993e-08	0.000000e+00	0.000000e+00	1.800000e+00	
312	2.528942e-08	0.000000e+00	0.000000e+00	1.800000e+00	
313	2.533629e-08	0.000000e+00	0.000000e+00	1.800000e+00	
314	2.539616e-08	0.000000e+00	0.000000e+00	1.800000e+00	
315	2.548774e-08	0.000000e+00	0.000000e+00	1.800000e+00	
316	2.558774e-08	0.000000e+00	0.000000e+00	1.800000e+00	
317	2.568774e-08	0.000000e+00	0.000000e+00	1.800000e+00	
318	2.578774e-08	0.000000e+00	0.000000e+00	1.800000e+00	
319	2.588774e-08	0.000000e+00	0.000000e+00	1.800000e+00	
320	2.598774e-08	0.000000e+00	0.000000e+00	1.800000e+00	
321	2.608774e-08	0.000000e+00	0.000000e+00	1.800000e+00	
322	2.618774e-08	0.000000e+00	0.000000e+00	1.800000e+00	
323	2.628774e-08	0.000000e+00	0.000000e+00	1.800000e+00	
324	2.638774e-08	0.000000e+00	0.000000e+00	1.800000e+00	
325	2.648774e-08	0.000000e+00	0.000000e+00	1.800000e+00	
326	2.658774e-08	0.000000e+00	0.000000e+00	1.800000e+00	
327	2.668774e-08	0.000000e+00	0.000000e+00	1.800000e+00	
328	2.678774e-08	0.000000e+00	0.000000e+00	1.800000e+00	
329	2.688774e-08	0.000000e+00	0.000000e+00	1.800000e+00	
330	2.698774e-08	0.000000e+00	0.000000e+00	1.800000e+00	
331	2.708774e-08	0.000000e+00	0.000000e+00	1.800000e+00	
