               * /home/drako/esim-workspace/xor_gate/xor_gate.cir
               Transient Analysis  Tue Jun 29 19:57:36  2021
--------------------------------------------------------------------------------
Index   time                            a               b               
--------------------------------------------------------------------------------
0	0.000000e+00	0.000000e+00	0.000000e+00	0.000000e+00	
1	1.000000e-12	0.000000e+00	1.800000e-02	1.800000e-02	
2	2.000000e-12	0.000000e+00	3.600000e-02	3.600000e-02	
3	4.000000e-12	0.000000e+00	7.200000e-02	7.200000e-02	
4	8.000000e-12	0.000000e+00	1.440000e-01	1.440000e-01	
5	1.600000e-11	0.000000e+00	2.880000e-01	2.880000e-01	
6	3.200000e-11	0.000000e+00	5.760000e-01	5.760000e-01	
7	6.400000e-11	0.000000e+00	1.152000e+00	1.152000e+00	
8	1.000000e-10	0.000000e+00	1.800000e+00	1.800000e+00	
9	1.056773e-10	0.000000e+00	1.800000e+00	1.800000e+00	
10	1.170318e-10	0.000000e+00	1.800000e+00	1.800000e+00	
11	1.397408e-10	0.000000e+00	1.800000e+00	1.800000e+00	
12	1.628963e-10	0.000000e+00	1.800000e+00	1.800000e+00	
13	1.981328e-10	0.000000e+00	1.800000e+00	1.800000e+00	
14	2.465483e-10	0.000000e+00	1.800000e+00	1.800000e+00	
15	3.041920e-10	0.000000e+00	1.800000e+00	1.800000e+00	
16	3.659190e-10	0.000000e+00	1.800000e+00	1.800000e+00	
17	4.553433e-10	0.000000e+00	1.800000e+00	1.800000e+00	
18	5.553433e-10	0.000000e+00	1.800000e+00	1.800000e+00	
19	6.553433e-10	0.000000e+00	1.800000e+00	1.800000e+00	
20	7.553433e-10	0.000000e+00	1.800000e+00	1.800000e+00	
21	8.553433e-10	0.000000e+00	1.800000e+00	1.800000e+00	
22	9.553433e-10	0.000000e+00	1.800000e+00	1.800000e+00	
23	1.055343e-09	0.000000e+00	1.800000e+00	1.800000e+00	
24	1.155343e-09	0.000000e+00	1.800000e+00	1.800000e+00	
25	1.255343e-09	0.000000e+00	1.800000e+00	1.800000e+00	
26	1.355343e-09	0.000000e+00	1.800000e+00	1.800000e+00	
27	1.455343e-09	0.000000e+00	1.800000e+00	1.800000e+00	
28	1.555343e-09	0.000000e+00	1.800000e+00	1.800000e+00	
29	1.655343e-09	0.000000e+00	1.800000e+00	1.800000e+00	
30	1.755343e-09	0.000000e+00	1.800000e+00	1.800000e+00	
31	1.855343e-09	0.000000e+00	1.800000e+00	1.800000e+00	
32	1.955343e-09	0.000000e+00	1.800000e+00	1.800000e+00	
33	2.055343e-09	0.000000e+00	1.800000e+00	1.800000e+00	
34	2.155343e-09	0.000000e+00	1.800000e+00	1.800000e+00	
35	2.255343e-09	0.000000e+00	1.800000e+00	1.800000e+00	
36	2.355343e-09	0.000000e+00	1.800000e+00	1.800000e+00	
37	2.455343e-09	0.000000e+00	1.800000e+00	1.800000e+00	
38	2.555343e-09	0.000000e+00	1.800000e+00	1.800000e+00	
39	2.655343e-09	0.000000e+00	1.800000e+00	1.800000e+00	
40	2.755343e-09	0.000000e+00	1.800000e+00	1.800000e+00	
41	2.855343e-09	0.000000e+00	1.800000e+00	1.800000e+00	
42	2.955343e-09	0.000000e+00	1.800000e+00	1.800000e+00	
43	3.055343e-09	0.000000e+00	1.800000e+00	1.800000e+00	
44	3.155343e-09	0.000000e+00	1.800000e+00	1.800000e+00	
45	3.255343e-09	0.000000e+00	1.800000e+00	1.800000e+00	
46	3.355343e-09	0.000000e+00	1.800000e+00	1.800000e+00	
47	3.455343e-09	0.000000e+00	1.800000e+00	1.800000e+00	
48	3.555343e-09	0.000000e+00	1.800000e+00	1.800000e+00	
49	3.655343e-09	0.000000e+00	1.800000e+00	1.800000e+00	
50	3.755343e-09	0.000000e+00	1.800000e+00	1.800000e+00	
51	3.855343e-09	0.000000e+00	1.800000e+00	1.800000e+00	
52	3.955343e-09	0.000000e+00	1.800000e+00	1.800000e+00	
53	4.055343e-09	0.000000e+00	1.800000e+00	1.800000e+00	
54	4.155343e-09	0.000000e+00	1.800000e+00	1.800000e+00	

Index   time                            a               b               
--------------------------------------------------------------------------------
55	4.255343e-09	0.000000e+00	1.800000e+00	1.800000e+00	
56	4.355343e-09	0.000000e+00	1.800000e+00	1.800000e+00	
57	4.455343e-09	0.000000e+00	1.800000e+00	1.800000e+00	
58	4.555343e-09	0.000000e+00	1.800000e+00	1.800000e+00	
59	4.655343e-09	0.000000e+00	1.800000e+00	1.800000e+00	
60	4.755343e-09	0.000000e+00	1.800000e+00	1.800000e+00	
61	4.855343e-09	0.000000e+00	1.800000e+00	1.800000e+00	
62	4.955343e-09	0.000000e+00	1.800000e+00	1.800000e+00	
63	5.055343e-09	0.000000e+00	1.800000e+00	1.800000e+00	
64	5.100000e-09	0.000000e+00	1.800000e+00	1.800000e+00	
65	5.110000e-09	0.000000e+00	1.620000e+00	1.800000e+00	
66	5.130000e-09	0.000000e+00	1.260000e+00	1.800000e+00	
67	5.170000e-09	0.000000e+00	5.400000e-01	1.800000e+00	
68	5.200000e-09	0.000000e+00	0.000000e+00	1.800000e+00	
69	5.206045e-09	0.000000e+00	0.000000e+00	1.800000e+00	
70	5.218136e-09	0.000000e+00	0.000000e+00	1.800000e+00	
71	5.242318e-09	0.000000e+00	0.000000e+00	1.800000e+00	
72	5.265900e-09	0.000000e+00	0.000000e+00	1.800000e+00	
73	5.313062e-09	0.000000e+00	0.000000e+00	1.800000e+00	
74	5.359871e-09	0.000000e+00	0.000000e+00	1.800000e+00	
75	5.442720e-09	0.000000e+00	0.000000e+00	1.800000e+00	
76	5.541052e-09	0.000000e+00	0.000000e+00	1.800000e+00	
77	5.641052e-09	0.000000e+00	0.000000e+00	1.800000e+00	
78	5.741052e-09	0.000000e+00	0.000000e+00	1.800000e+00	
79	5.841052e-09	0.000000e+00	0.000000e+00	1.800000e+00	
80	5.941052e-09	0.000000e+00	0.000000e+00	1.800000e+00	
81	6.041052e-09	0.000000e+00	0.000000e+00	1.800000e+00	
82	6.141052e-09	0.000000e+00	0.000000e+00	1.800000e+00	
83	6.241052e-09	0.000000e+00	0.000000e+00	1.800000e+00	
84	6.341052e-09	0.000000e+00	0.000000e+00	1.800000e+00	
85	6.441052e-09	0.000000e+00	0.000000e+00	1.800000e+00	
86	6.541052e-09	0.000000e+00	0.000000e+00	1.800000e+00	
87	6.641052e-09	0.000000e+00	0.000000e+00	1.800000e+00	
88	6.741052e-09	0.000000e+00	0.000000e+00	1.800000e+00	
89	6.841052e-09	0.000000e+00	0.000000e+00	1.800000e+00	
90	6.941052e-09	0.000000e+00	0.000000e+00	1.800000e+00	
91	7.041052e-09	0.000000e+00	0.000000e+00	1.800000e+00	
92	7.141052e-09	0.000000e+00	0.000000e+00	1.800000e+00	
93	7.241052e-09	0.000000e+00	0.000000e+00	1.800000e+00	
94	7.341052e-09	0.000000e+00	0.000000e+00	1.800000e+00	
95	7.441052e-09	0.000000e+00	0.000000e+00	1.800000e+00	
96	7.541052e-09	0.000000e+00	0.000000e+00	1.800000e+00	
97	7.641052e-09	0.000000e+00	0.000000e+00	1.800000e+00	
98	7.741052e-09	0.000000e+00	0.000000e+00	1.800000e+00	
99	7.841052e-09	0.000000e+00	0.000000e+00	1.800000e+00	
100	7.941052e-09	0.000000e+00	0.000000e+00	1.800000e+00	
101	8.041052e-09	0.000000e+00	0.000000e+00	1.800000e+00	
102	8.141052e-09	0.000000e+00	0.000000e+00	1.800000e+00	
103	8.241052e-09	0.000000e+00	0.000000e+00	1.800000e+00	
104	8.341052e-09	0.000000e+00	0.000000e+00	1.800000e+00	
105	8.441052e-09	0.000000e+00	0.000000e+00	1.800000e+00	
106	8.541052e-09	0.000000e+00	0.000000e+00	1.800000e+00	
107	8.641052e-09	0.000000e+00	0.000000e+00	1.800000e+00	
108	8.741052e-09	0.000000e+00	0.000000e+00	1.800000e+00	
109	8.841052e-09	0.000000e+00	0.000000e+00	1.800000e+00	
110	8.941052e-09	0.000000e+00	0.000000e+00	1.800000e+00	
111	9.041052e-09	0.000000e+00	0.000000e+00	1.800000e+00	
112	9.141052e-09	0.000000e+00	0.000000e+00	1.800000e+00	

Index   time                            a               b               
--------------------------------------------------------------------------------
113	9.241052e-09	0.000000e+00	0.000000e+00	1.800000e+00	
114	9.341052e-09	0.000000e+00	0.000000e+00	1.800000e+00	
115	9.441052e-09	0.000000e+00	0.000000e+00	1.800000e+00	
116	9.541052e-09	0.000000e+00	0.000000e+00	1.800000e+00	
117	9.641052e-09	0.000000e+00	0.000000e+00	1.800000e+00	
118	9.741052e-09	0.000000e+00	0.000000e+00	1.800000e+00	
119	9.841052e-09	0.000000e+00	0.000000e+00	1.800000e+00	
120	9.941052e-09	0.000000e+00	0.000000e+00	1.800000e+00	
121	1.000000e-08	0.000000e+00	0.000000e+00	1.800000e+00	
122	1.001000e-08	0.000000e+00	1.800000e-01	1.800000e+00	
123	1.003000e-08	0.000000e+00	5.400000e-01	1.800000e+00	
124	1.007000e-08	0.000000e+00	1.260000e+00	1.800000e+00	
125	1.010000e-08	0.000000e+00	1.800000e+00	1.800000e+00	
126	1.010655e-08	0.000000e+00	1.800000e+00	1.682076e+00	
127	1.011965e-08	0.000000e+00	1.800000e+00	1.446228e+00	
128	1.014586e-08	0.000000e+00	1.800000e+00	9.745320e-01	
129	1.018248e-08	0.000000e+00	1.800000e+00	3.154267e-01	
130	1.020000e-08	0.000000e+00	1.800000e+00	0.000000e+00	
131	1.020394e-08	0.000000e+00	1.800000e+00	0.000000e+00	
132	1.021182e-08	0.000000e+00	1.800000e+00	0.000000e+00	
133	1.022759e-08	0.000000e+00	1.800000e+00	0.000000e+00	
134	1.025912e-08	0.000000e+00	1.800000e+00	0.000000e+00	
135	1.031576e-08	0.000000e+00	1.800000e+00	0.000000e+00	
136	1.038758e-08	0.000000e+00	1.800000e+00	0.000000e+00	
137	1.048758e-08	0.000000e+00	1.800000e+00	0.000000e+00	
138	1.058758e-08	0.000000e+00	1.800000e+00	0.000000e+00	
139	1.068758e-08	0.000000e+00	1.800000e+00	0.000000e+00	
140	1.078758e-08	0.000000e+00	1.800000e+00	0.000000e+00	
141	1.088758e-08	0.000000e+00	1.800000e+00	0.000000e+00	
142	1.098758e-08	0.000000e+00	1.800000e+00	0.000000e+00	
143	1.108758e-08	0.000000e+00	1.800000e+00	0.000000e+00	
144	1.118758e-08	0.000000e+00	1.800000e+00	0.000000e+00	
145	1.128758e-08	0.000000e+00	1.800000e+00	0.000000e+00	
146	1.138758e-08	0.000000e+00	1.800000e+00	0.000000e+00	
147	1.148758e-08	0.000000e+00	1.800000e+00	0.000000e+00	
148	1.158758e-08	0.000000e+00	1.800000e+00	0.000000e+00	
149	1.168758e-08	0.000000e+00	1.800000e+00	0.000000e+00	
150	1.178758e-08	0.000000e+00	1.800000e+00	0.000000e+00	
151	1.188758e-08	0.000000e+00	1.800000e+00	0.000000e+00	
152	1.198758e-08	0.000000e+00	1.800000e+00	0.000000e+00	
153	1.208758e-08	0.000000e+00	1.800000e+00	0.000000e+00	
154	1.218758e-08	0.000000e+00	1.800000e+00	0.000000e+00	
155	1.228758e-08	0.000000e+00	1.800000e+00	0.000000e+00	
156	1.238758e-08	0.000000e+00	1.800000e+00	0.000000e+00	
157	1.248758e-08	0.000000e+00	1.800000e+00	0.000000e+00	
158	1.258758e-08	0.000000e+00	1.800000e+00	0.000000e+00	
159	1.268758e-08	0.000000e+00	1.800000e+00	0.000000e+00	
160	1.278758e-08	0.000000e+00	1.800000e+00	0.000000e+00	
161	1.288758e-08	0.000000e+00	1.800000e+00	0.000000e+00	
162	1.298758e-08	0.000000e+00	1.800000e+00	0.000000e+00	
163	1.308758e-08	0.000000e+00	1.800000e+00	0.000000e+00	
164	1.318758e-08	0.000000e+00	1.800000e+00	0.000000e+00	
165	1.328758e-08	0.000000e+00	1.800000e+00	0.000000e+00	
166	1.338758e-08	0.000000e+00	1.800000e+00	0.000000e+00	
167	1.348758e-08	0.000000e+00	1.800000e+00	0.000000e+00	
168	1.358758e-08	0.000000e+00	1.800000e+00	0.000000e+00	
169	1.368758e-08	0.000000e+00	1.800000e+00	0.000000e+00	
170	1.378758e-08	0.000000e+00	1.800000e+00	0.000000e+00	

Index   time                            a               b               
--------------------------------------------------------------------------------
171	1.388758e-08	0.000000e+00	1.800000e+00	0.000000e+00	
172	1.398758e-08	0.000000e+00	1.800000e+00	0.000000e+00	
173	1.408758e-08	0.000000e+00	1.800000e+00	0.000000e+00	
174	1.418758e-08	0.000000e+00	1.800000e+00	0.000000e+00	
175	1.428758e-08	0.000000e+00	1.800000e+00	0.000000e+00	
176	1.438758e-08	0.000000e+00	1.800000e+00	0.000000e+00	
177	1.448758e-08	0.000000e+00	1.800000e+00	0.000000e+00	
178	1.458758e-08	0.000000e+00	1.800000e+00	0.000000e+00	
179	1.468758e-08	0.000000e+00	1.800000e+00	0.000000e+00	
180	1.478758e-08	0.000000e+00	1.800000e+00	0.000000e+00	
181	1.488758e-08	0.000000e+00	1.800000e+00	0.000000e+00	
182	1.498758e-08	0.000000e+00	1.800000e+00	0.000000e+00	
183	1.508758e-08	0.000000e+00	1.800000e+00	0.000000e+00	
184	1.510000e-08	0.000000e+00	1.800000e+00	0.000000e+00	
185	1.510455e-08	0.000000e+00	1.718189e+00	0.000000e+00	
186	1.511364e-08	0.000000e+00	1.554567e+00	0.000000e+00	
187	1.513182e-08	0.000000e+00	1.227324e+00	0.000000e+00	
188	1.516818e-08	0.000000e+00	5.728366e-01	0.000000e+00	
189	1.520000e-08	0.000000e+00	0.000000e+00	0.000000e+00	
190	1.520662e-08	0.000000e+00	0.000000e+00	0.000000e+00	
191	1.521986e-08	0.000000e+00	0.000000e+00	0.000000e+00	
192	1.524633e-08	0.000000e+00	0.000000e+00	0.000000e+00	
193	1.529928e-08	0.000000e+00	0.000000e+00	0.000000e+00	
194	1.535893e-08	0.000000e+00	0.000000e+00	0.000000e+00	
195	1.542433e-08	0.000000e+00	0.000000e+00	0.000000e+00	
196	1.552433e-08	0.000000e+00	0.000000e+00	0.000000e+00	
197	1.562433e-08	0.000000e+00	0.000000e+00	0.000000e+00	
198	1.572433e-08	0.000000e+00	0.000000e+00	0.000000e+00	
199	1.582433e-08	0.000000e+00	0.000000e+00	0.000000e+00	
200	1.592433e-08	0.000000e+00	0.000000e+00	0.000000e+00	
201	1.602433e-08	0.000000e+00	0.000000e+00	0.000000e+00	
202	1.612433e-08	0.000000e+00	0.000000e+00	0.000000e+00	
203	1.622433e-08	0.000000e+00	0.000000e+00	0.000000e+00	
204	1.632433e-08	0.000000e+00	0.000000e+00	0.000000e+00	
205	1.642433e-08	0.000000e+00	0.000000e+00	0.000000e+00	
206	1.652433e-08	0.000000e+00	0.000000e+00	0.000000e+00	
207	1.662433e-08	0.000000e+00	0.000000e+00	0.000000e+00	
208	1.672433e-08	0.000000e+00	0.000000e+00	0.000000e+00	
209	1.682433e-08	0.000000e+00	0.000000e+00	0.000000e+00	
210	1.692433e-08	0.000000e+00	0.000000e+00	0.000000e+00	
211	1.702433e-08	0.000000e+00	0.000000e+00	0.000000e+00	
212	1.712433e-08	0.000000e+00	0.000000e+00	0.000000e+00	
213	1.722433e-08	0.000000e+00	0.000000e+00	0.000000e+00	
214	1.732433e-08	0.000000e+00	0.000000e+00	0.000000e+00	
215	1.742433e-08	0.000000e+00	0.000000e+00	0.000000e+00	
216	1.752433e-08	0.000000e+00	0.000000e+00	0.000000e+00	
217	1.762433e-08	0.000000e+00	0.000000e+00	0.000000e+00	
218	1.772433e-08	0.000000e+00	0.000000e+00	0.000000e+00	
219	1.782433e-08	0.000000e+00	0.000000e+00	0.000000e+00	
220	1.792433e-08	0.000000e+00	0.000000e+00	0.000000e+00	
221	1.802433e-08	0.000000e+00	0.000000e+00	0.000000e+00	
222	1.812433e-08	0.000000e+00	0.000000e+00	0.000000e+00	
223	1.822433e-08	0.000000e+00	0.000000e+00	0.000000e+00	
224	1.832433e-08	0.000000e+00	0.000000e+00	0.000000e+00	
225	1.842433e-08	0.000000e+00	0.000000e+00	0.000000e+00	
226	1.852433e-08	0.000000e+00	0.000000e+00	0.000000e+00	
227	1.862433e-08	0.000000e+00	0.000000e+00	0.000000e+00	
228	1.872433e-08	0.000000e+00	0.000000e+00	0.000000e+00	

Index   time                            a               b               
--------------------------------------------------------------------------------
229	1.882433e-08	0.000000e+00	0.000000e+00	0.000000e+00	
230	1.892433e-08	0.000000e+00	0.000000e+00	0.000000e+00	
231	1.902433e-08	0.000000e+00	0.000000e+00	0.000000e+00	
232	1.912433e-08	0.000000e+00	0.000000e+00	0.000000e+00	
233	1.922433e-08	0.000000e+00	0.000000e+00	0.000000e+00	
234	1.932433e-08	0.000000e+00	0.000000e+00	0.000000e+00	
235	1.942433e-08	0.000000e+00	0.000000e+00	0.000000e+00	
236	1.952433e-08	0.000000e+00	0.000000e+00	0.000000e+00	
237	1.962433e-08	0.000000e+00	0.000000e+00	0.000000e+00	
238	1.972433e-08	0.000000e+00	0.000000e+00	0.000000e+00	
239	1.982433e-08	0.000000e+00	0.000000e+00	0.000000e+00	
240	1.992433e-08	0.000000e+00	0.000000e+00	0.000000e+00	
241	2.000000e-08	0.000000e+00	0.000000e+00	0.000000e+00	
242	2.001000e-08	0.000000e+00	1.800000e-01	1.800000e-01	
243	2.003000e-08	0.000000e+00	5.400000e-01	5.400000e-01	
244	2.007000e-08	0.000000e+00	1.260000e+00	1.260000e+00	
245	2.010000e-08	0.000000e+00	1.800000e+00	1.800000e+00	
246	2.010517e-08	0.000000e+00	1.800000e+00	1.800000e+00	
247	2.011550e-08	0.000000e+00	1.800000e+00	1.800000e+00	
248	2.013616e-08	0.000000e+00	1.800000e+00	1.800000e+00	
249	2.016241e-08	0.000000e+00	1.800000e+00	1.800000e+00	
250	2.019835e-08	0.000000e+00	1.800000e+00	1.800000e+00	
251	2.024604e-08	0.000000e+00	1.800000e+00	1.800000e+00	
252	2.030688e-08	0.000000e+00	1.800000e+00	1.800000e+00	
253	2.036731e-08	0.000000e+00	1.800000e+00	1.800000e+00	
254	2.045945e-08	0.000000e+00	1.800000e+00	1.800000e+00	
255	2.055945e-08	0.000000e+00	1.800000e+00	1.800000e+00	
256	2.065945e-08	0.000000e+00	1.800000e+00	1.800000e+00	
257	2.075945e-08	0.000000e+00	1.800000e+00	1.800000e+00	
258	2.085945e-08	0.000000e+00	1.800000e+00	1.800000e+00	
259	2.095945e-08	0.000000e+00	1.800000e+00	1.800000e+00	
260	2.105945e-08	0.000000e+00	1.800000e+00	1.800000e+00	
261	2.115945e-08	0.000000e+00	1.800000e+00	1.800000e+00	
262	2.125945e-08	0.000000e+00	1.800000e+00	1.800000e+00	
263	2.135945e-08	0.000000e+00	1.800000e+00	1.800000e+00	
264	2.145945e-08	0.000000e+00	1.800000e+00	1.800000e+00	
265	2.155945e-08	0.000000e+00	1.800000e+00	1.800000e+00	
266	2.165945e-08	0.000000e+00	1.800000e+00	1.800000e+00	
267	2.175945e-08	0.000000e+00	1.800000e+00	1.800000e+00	
268	2.185945e-08	0.000000e+00	1.800000e+00	1.800000e+00	
269	2.195945e-08	0.000000e+00	1.800000e+00	1.800000e+00	
270	2.205945e-08	0.000000e+00	1.800000e+00	1.800000e+00	
271	2.215945e-08	0.000000e+00	1.800000e+00	1.800000e+00	
272	2.225945e-08	0.000000e+00	1.800000e+00	1.800000e+00	
273	2.235945e-08	0.000000e+00	1.800000e+00	1.800000e+00	
274	2.245945e-08	0.000000e+00	1.800000e+00	1.800000e+00	
275	2.255945e-08	0.000000e+00	1.800000e+00	1.800000e+00	
276	2.265945e-08	0.000000e+00	1.800000e+00	1.800000e+00	
277	2.275945e-08	0.000000e+00	1.800000e+00	1.800000e+00	
278	2.285945e-08	0.000000e+00	1.800000e+00	1.800000e+00	
279	2.295945e-08	0.000000e+00	1.800000e+00	1.800000e+00	
280	2.305945e-08	0.000000e+00	1.800000e+00	1.800000e+00	
281	2.315945e-08	0.000000e+00	1.800000e+00	1.800000e+00	
282	2.325945e-08	0.000000e+00	1.800000e+00	1.800000e+00	
283	2.335945e-08	0.000000e+00	1.800000e+00	1.800000e+00	
284	2.345945e-08	0.000000e+00	1.800000e+00	1.800000e+00	
285	2.355945e-08	0.000000e+00	1.800000e+00	1.800000e+00	
286	2.365945e-08	0.000000e+00	1.800000e+00	1.800000e+00	

Index   time                            a               b               
--------------------------------------------------------------------------------
287	2.375945e-08	0.000000e+00	1.800000e+00	1.800000e+00	
288	2.385945e-08	0.000000e+00	1.800000e+00	1.800000e+00	
289	2.395945e-08	0.000000e+00	1.800000e+00	1.800000e+00	
290	2.405945e-08	0.000000e+00	1.800000e+00	1.800000e+00	
291	2.415945e-08	0.000000e+00	1.800000e+00	1.800000e+00	
292	2.425945e-08	0.000000e+00	1.800000e+00	1.800000e+00	
293	2.435945e-08	0.000000e+00	1.800000e+00	1.800000e+00	
294	2.445945e-08	0.000000e+00	1.800000e+00	1.800000e+00	
295	2.455945e-08	0.000000e+00	1.800000e+00	1.800000e+00	
296	2.465945e-08	0.000000e+00	1.800000e+00	1.800000e+00	
297	2.475945e-08	0.000000e+00	1.800000e+00	1.800000e+00	
298	2.485945e-08	0.000000e+00	1.800000e+00	1.800000e+00	
299	2.495945e-08	0.000000e+00	1.800000e+00	1.800000e+00	
300	2.505945e-08	0.000000e+00	1.800000e+00	1.800000e+00	
301	2.510000e-08	0.000000e+00	1.800000e+00	1.800000e+00	
302	2.511000e-08	0.000000e+00	1.620000e+00	1.800000e+00	
303	2.513000e-08	0.000000e+00	1.260000e+00	1.800000e+00	
304	2.517000e-08	0.000000e+00	5.400000e-01	1.800000e+00	
305	2.520000e-08	0.000000e+00	0.000000e+00	1.800000e+00	
306	2.520605e-08	0.000000e+00	0.000000e+00	1.800000e+00	
307	2.521814e-08	0.000000e+00	0.000000e+00	1.800000e+00	
308	2.524232e-08	0.000000e+00	0.000000e+00	1.800000e+00	
309	2.526591e-08	0.000000e+00	0.000000e+00	1.800000e+00	
310	2.531307e-08	0.000000e+00	0.000000e+00	1.800000e+00	
311	2.535988e-08	0.000000e+00	0.000000e+00	1.800000e+00	
312	2.544274e-08	0.000000e+00	0.000000e+00	1.800000e+00	
313	2.554107e-08	0.000000e+00	0.000000e+00	1.800000e+00	
314	2.564107e-08	0.000000e+00	0.000000e+00	1.800000e+00	
315	2.574107e-08	0.000000e+00	0.000000e+00	1.800000e+00	
316	2.584107e-08	0.000000e+00	0.000000e+00	1.800000e+00	
317	2.594107e-08	0.000000e+00	0.000000e+00	1.800000e+00	
318	2.604107e-08	0.000000e+00	0.000000e+00	1.800000e+00	
319	2.614107e-08	0.000000e+00	0.000000e+00	1.800000e+00	
320	2.624107e-08	0.000000e+00	0.000000e+00	1.800000e+00	
321	2.634107e-08	0.000000e+00	0.000000e+00	1.800000e+00	
322	2.644107e-08	0.000000e+00	0.000000e+00	1.800000e+00	
323	2.654107e-08	0.000000e+00	0.000000e+00	1.800000e+00	
324	2.664107e-08	0.000000e+00	0.000000e+00	1.800000e+00	
325	2.674107e-08	0.000000e+00	0.000000e+00	1.800000e+00	
326	2.684107e-08	0.000000e+00	0.000000e+00	1.800000e+00	
327	2.694107e-08	0.000000e+00	0.000000e+00	1.800000e+00	
328	2.704107e-08	0.000000e+00	0.000000e+00	1.800000e+00	
329	2.714107e-08	0.000000e+00	0.000000e+00	1.800000e+00	
330	2.724107e-08	0.000000e+00	0.000000e+00	1.800000e+00	
331	2.734107e-08	0.000000e+00	0.000000e+00	1.800000e+00	
